
T25A8 000:628 SEGGER J-Link V4.90 Log File (0002ms, 0273ms total)
T25A8 000:628 DLL Compiled: Jul 28 2014 10:35:20 (0002ms, 0273ms total)
T25A8 000:628 Logging started @ 2018-09-25 14:03 (0002ms, 0273ms total)
T25A8 000:630 JLINK_SetWarnOutHandler(...) (0001ms, 0274ms total)
T25A8 000:631 JLINK_OpenEx(...)
Firmware: J-Link V9 compiled Apr 20 2018 16:47:26
Hardware: V9.30
S/N: 269307197
OEM: SEGGER-EDU
Feature(s): FlashBP, GDB  returns O.K. (0272ms, 0546ms total)
T25A8 000:904 JLINK_SetErrorOutHandler(...) (0000ms, 0546ms total)
T25A8 000:904 JLINK_ExecCommand("ProjectFile = "D:\F_pan\stm32CubeMX_Proj\新网关\高级例程-以太网-TCP客户端模式测试\407网关2018年9月21日200509三串通 - 副本\407网关2018年9月21日200509三串通\USER\JLinkSettings.ini"", ...)  returns 0x00 (0003ms, 0549ms total)
T25A8 000:907 JLINK_ExecCommand("Device = STM32F407ZE", ...)Device "STM32F407ZE" selected (512 KB flash, 128 KB RAM).  returns 0x00 (0004ms, 0553ms total)
T25A8 000:911 JLINK_ExecCommand("DisableConnectionTimeout", ...)  returns 0x01 (0000ms, 0553ms total)
T25A8 000:911 JLINK_GetHardwareVersion()  returns 0x16B48 (0000ms, 0553ms total)
T25A8 000:911 JLINK_GetDLLVersion()  returns 49000 (0000ms, 0553ms total)
T25A8 000:914 JLINK_GetDLLVersion()  returns 49000 (0000ms, 0553ms total)
T25A8 000:914 JLINK_GetCompileDateTime() (0000ms, 0553ms total)
T25A8 000:915 JLINK_GetFirmwareString(...) (0000ms, 0553ms total)
T25A8 000:917 JLINK_GetHardwareVersion()  returns 0x16B48 (0001ms, 0554ms total)
T25A8 000:922 JLINK_TIF_Select(JLINKARM_TIF_SWD)  returns 0x00 (0001ms, 0555ms total)
T25A8 000:923 JLINK_SetSpeed(5000) (0001ms, 0556ms total)
T25A8 000:924 JLINK_GetId() >0x108 TIF>Found SWD-DP with ID 0x2BA01477 >0x0D TIF> >0x28 TIF> >0x0D TIF> >0x28 TIF> >0x0D TIF> >0x21 TIF> >0x0D TIF> >0x28 TIF> >0x0D TIF> >0x28 TIF> >0x0D TIF> >0x28 TIF> >0x0D TIF> >0x21 TIF> >0x0D TIF> >0x21 TIF> >0x0D TIF> >0x28 TIF> >0x0D TIF> >0x21 TIF> >0x0D TIF> >0x21 TIF> >0x0D TIF> >0x28 TIF> >0x0D TIF> >0x21 TIF> >0x0D TIF> >0x21 TIF> >0x108 TIF>Found SWD-DP with ID 0x2BA01477 >0x0D TIF> >0x21 TIF> >0x0D TIF> >0x28 TIF> >0x0D TIF> >0x28 TIF> >0x0D TIF> >0x21 TIF>
 >0x0D TIF> >0x28 TIF> >0x0D TIF> >0x21 TIF> >0x0D TIF> >0x21 TIF> >0x0D TIF> >0x21 TIF> >0x0D TIF> >0x21 TIF> >0x0D TIF> >0x28 TIF> >0x0D TIF> >0x28 TIF> >0x0D TIF> >0x21 TIF> >0x0D TIF> >0x28 TIF> >0x0D TIF> >0x28 TIF> >0x0D TIF> >0x28 TIF> >0x0D TIF> >0x21 TIF> >0x0D TIF> >0x21 TIF> >0x0D TIF> >0x28 TIF> >0x0D TIF> >0x21 TIF> >0x0D TIF> >0x21 TIF>Found Cortex-M4 r0p1, Little endian. -- CPU_WriteMem(4 bytes @ 0xE0002000) -- CPU_ReadMem(4 bytes @ 0xE000EDF0) -- CPU_ReadMem(4 bytes @ 0xE0002000)
FPUnit: 6 code (BP) slots and 2 literal slots -- CPU_ReadMem(4 bytes @ 0xE000EDFC) -- CPU_ReadMem(4 bytes @ 0xE0001000) -- CPU_WriteMem(4 bytes @ 0xE0001000) -- CPU_ReadMem(4 bytes @ 0xE00FF010)TPIU fitted. -- CPU_ReadMem(4 bytes @ 0xE00FF014)ETM fitted. -- CPU_ReadMem(4 bytes @ 0xE00FF018) >0x0D TIF> >0x21 TIF>  returns 0x2BA01477 (0027ms, 0583ms total)
T25A8 000:951 JLINK_GetDLLVersion()  returns 49000 (0000ms, 0583ms total)
T25A8 000:951 JLINK_CORE_GetFound()  returns 0xE0000FF (0000ms, 0583ms total)
T25A8 000:952 JLINK_ReadMem (0xE00FF000, 0x0020 Bytes, ...) -- CPU is running -- CPU_ReadMem(32 bytes @ 0xE00FF000) - Data: 03 F0 F0 FF 03 20 F0 FF 03 30 F0 FF 03 10 F0 FF ...  returns 0x00 (0000ms, 0583ms total)
T25A8 000:952 JLINK_ReadMem (0xE000EFF0, 0x0010 Bytes, ...) -- CPU is running -- CPU_ReadMem(16 bytes @ 0xE000EFF0) - Data: 0D 00 00 00 E0 00 00 00 05 00 00 00 B1 00 00 00  returns 0x00 (0011ms, 0594ms total)
T25A8 000:963 JLINK_ReadMem (0xE000EFD0, 0x0020 Bytes, ...) -- CPU is running -- CPU_ReadMem(32 bytes @ 0xE000EFD0) - Data: 04 00 00 00 00 00 00 00 00 00 00 00 00 00 00 00 ...  returns 0x00 (0001ms, 0595ms total)
T25A8 000:964 JLINK_ReadMem (0xE0001FF0, 0x0010 Bytes, ...) -- CPU is running -- CPU_ReadMem(16 bytes @ 0xE0001FF0) - Data: 0D 00 00 00 E0 00 00 00 05 00 00 00 B1 00 00 00  returns 0x00 (0000ms, 0595ms total)
T25A8 000:964 JLINK_ReadMem (0xE0001FD0, 0x0020 Bytes, ...) -- CPU is running -- CPU_ReadMem(32 bytes @ 0xE0001FD0) - Data: 04 00 00 00 00 00 00 00 00 00 00 00 00 00 00 00 ...  returns 0x00 (0001ms, 0596ms total)
T25A8 000:965 JLINK_ReadMem (0xE0002FF0, 0x0010 Bytes, ...) -- CPU is running -- CPU_ReadMem(16 bytes @ 0xE0002FF0) - Data: 0D 00 00 00 E0 00 00 00 05 00 00 00 B1 00 00 00  returns 0x00 (0000ms, 0596ms total)
T25A8 000:965 JLINK_ReadMem (0xE0002FD0, 0x0020 Bytes, ...) -- CPU is running -- CPU_ReadMem(32 bytes @ 0xE0002FD0) - Data: 04 00 00 00 00 00 00 00 00 00 00 00 00 00 00 00 ...  returns 0x00 (0001ms, 0597ms total)
T25A8 000:966 JLINK_ReadMem (0xE0000FF0, 0x0010 Bytes, ...) -- CPU is running -- CPU_ReadMem(16 bytes @ 0xE0000FF0) - Data: 0D 00 00 00 E0 00 00 00 05 00 00 00 B1 00 00 00  returns 0x00 (0000ms, 0597ms total)
T25A8 000:966 JLINK_ReadMem (0xE0000FD0, 0x0020 Bytes, ...) -- CPU is running -- CPU_ReadMem(32 bytes @ 0xE0000FD0) - Data: 04 00 00 00 00 00 00 00 00 00 00 00 00 00 00 00 ...  returns 0x00 (0001ms, 0598ms total)
T25A8 000:967 JLINK_ReadMem (0xE0040FF0, 0x0010 Bytes, ...) -- CPU is running -- CPU_ReadMem(16 bytes @ 0xE0040FF0) - Data: 0D 00 00 00 90 00 00 00 05 00 00 00 B1 00 00 00  returns 0x00 (0000ms, 0598ms total)
T25A8 000:967 JLINK_ReadMem (0xE0040FD0, 0x0020 Bytes, ...) -- CPU is running -- CPU_ReadMem(32 bytes @ 0xE0040FD0) - Data: 04 00 00 00 00 00 00 00 00 00 00 00 00 00 00 00 ...  returns 0x00 (0000ms, 0598ms total)
T25A8 000:967 JLINK_ReadMem (0xE0041FF0, 0x0010 Bytes, ...) -- CPU is running -- CPU_ReadMem(16 bytes @ 0xE0041FF0) - Data: 0D 00 00 00 90 00 00 00 05 00 00 00 B1 00 00 00  returns 0x00 (0001ms, 0599ms total)
T25A8 000:968 JLINK_ReadMem (0xE0041FD0, 0x0020 Bytes, ...) -- CPU is running -- CPU_ReadMem(32 bytes @ 0xE0041FD0) - Data: 04 00 00 00 00 00 00 00 00 00 00 00 00 00 00 00 ...  returns 0x00 (0000ms, 0599ms total)
T25A8 000:968 JLINK_ReadMemU32(0xE000EF40, 0x0001 Items, ...) -- CPU is running -- CPU_ReadMem(4 bytes @ 0xE000EF40) - Data: 21 00 11 10  returns 0x01 (0001ms, 0600ms total)
T25A8 000:969 JLINK_ReadMemU32(0xE000EF44, 0x0001 Items, ...) -- CPU is running -- CPU_ReadMem(4 bytes @ 0xE000EF44) - Data: 11 00 00 11  returns 0x01 (0000ms, 0600ms total)
T25A8 000:969 JLINK_ReadMemU32(0xE000ED00, 0x0001 Items, ...) -- CPU is running -- CPU_ReadMem(4 bytes @ 0xE000ED00) - Data: 41 C2 0F 41  returns 0x01 (0000ms, 0600ms total)
T25A8 000:969 JLINK_SetResetType(JLINKARM_RESET_TYPE_NORMAL)  returns JLINKARM_RESET_TYPE_NORMAL (0000ms, 0600ms total)
T25A8 000:970 JLINK_Reset() -- CPU is running -- CPU_WriteMem(4 bytes @ 0xE000EDF0) -- CPU is running -- CPU_WriteMem(4 bytes @ 0xE000EDFC) >0x35 TIF> -- CPU is running -- CPU_WriteMem(4 bytes @ 0xE000ED0C) -- CPU is running -- CPU_ReadMem(4 bytes @ 0xE000EDF0) -- CPU is running -- CPU_ReadMem(4 bytes @ 0xE000EDF0) -- CPU is running -- CPU_WriteMem(4 bytes @ 0xE000EDF0) -- CPU is running -- CPU_WriteMem(4 bytes @ 0xE000EDFC) -- CPU is running -- CPU_ReadMem(4 bytes @ 0xE000EDF0)
 -- CPU_WriteMem(4 bytes @ 0xE0002000) -- CPU_ReadMem(4 bytes @ 0xE000EDFC) -- CPU_ReadMem(4 bytes @ 0xE0001000) (0016ms, 0617ms total)
T25A8 000:986 JLINK_ReadReg(R15 (PC))  returns 0x08000FE8 (0000ms, 0617ms total)
T25A8 000:986 JLINK_ReadReg(XPSR)  returns 0x01000000 (0000ms, 0617ms total)
T25A8 000:986 JLINK_Halt()  returns 0x00 (0000ms, 0617ms total)
T25A8 000:986 JLINK_IsHalted()  returns TRUE (0000ms, 0617ms total)
T25A8 000:986 JLINK_ReadMemU32(0xE000EDF0, 0x0001 Items, ...) -- CPU_ReadMem(4 bytes @ 0xE000EDF0) - Data: 03 00 03 00  returns 0x01 (0001ms, 0618ms total)
T25A8 000:987 JLINK_WriteU32(0xE000EDF0, 0xA05F0003) -- CPU_WriteMem(4 bytes @ 0xE000EDF0)  returns 0x00 (0000ms, 0618ms total)
T25A8 000:987 JLINK_WriteU32(0xE000EDFC, 0x01000000) -- CPU_WriteMem(4 bytes @ 0xE000EDFC)  returns 0x00 (0000ms, 0618ms total)
T25A8 000:989 JLINK_GetHWStatus(...)  returns 0x00 (0000ms, 0618ms total)
T25A8 000:989 JLINK_GetNumBPUnits(Type = 0xFFFFFF00)  returns 0x06 (0000ms, 0618ms total)
T25A8 000:989 JLINK_GetNumBPUnits(Type = 0xF0)  returns 0x2000 (0000ms, 0618ms total)
T25A8 000:989 JLINK_GetNumWPUnits()  returns 0x04 (0001ms, 0619ms total)
T25A8 000:990 JLINK_GetSpeed()  returns 0xFA0 (0000ms, 0619ms total)
T25A8 000:991 JLINK_ReadMemU32(0xE000E004, 0x0001 Items, ...) -- CPU_ReadMem(4 bytes @ 0xE000E004) - Data: 02 00 00 00  returns 0x01 (0000ms, 0619ms total)
T25A8 000:991 JLINK_ReadMemU32(0xE000E004, 0x0001 Items, ...) -- CPU_ReadMem(4 bytes @ 0xE000E004) - Data: 02 00 00 00  returns 0x01 (0001ms, 0620ms total)
T25A8 000:992 JLINK_WriteMem(0xE0001000, 0x001C Bytes, ...) - Data: 01 00 00 00 00 00 00 00 00 00 00 00 00 00 00 00 ... -- CPU_WriteMem(28 bytes @ 0xE0001000)  returns 0x1C (0000ms, 0620ms total)
T25A8 000:992 JLINK_ReadMem (0xE0001000, 0x001C Bytes, ...) -- CPU_ReadMem(28 bytes @ 0xE0001000) - Data: 01 00 00 40 00 00 00 00 00 00 00 00 00 00 00 00 ...  returns 0x00 (0001ms, 0621ms total)
T25A8 000:993 JLINK_ReadReg(R15 (PC))  returns 0x08000FE8 (0000ms, 0621ms total)
T25A8 000:993 JLINK_ReadReg(XPSR)  returns 0x01000000 (0000ms, 0621ms total)
T25A8 001:078 JLINK_SetResetType(JLINKARM_RESET_TYPE_NORMAL)  returns JLINKARM_RESET_TYPE_NORMAL (0000ms, 0621ms total)
T25A8 001:078 JLINK_Reset() -- CPU_WriteMem(4 bytes @ 0xE000EDF0) -- CPU_WriteMem(4 bytes @ 0xE000EDFC) >0x35 TIF> -- CPU_WriteMem(4 bytes @ 0xE000ED0C) -- CPU_ReadMem(4 bytes @ 0xE000EDF0) -- CPU_ReadMem(4 bytes @ 0xE000EDF0) -- CPU_WriteMem(4 bytes @ 0xE000EDF0) -- CPU_WriteMem(4 bytes @ 0xE000EDFC) -- CPU is running -- CPU_ReadMem(4 bytes @ 0xE000EDF0) -- CPU_WriteMem(4 bytes @ 0xE0002000) -- CPU_ReadMem(4 bytes @ 0xE000EDFC) -- CPU_ReadMem(4 bytes @ 0xE0001000) (0016ms, 0637ms total)
T25A8 001:094 JLINK_ReadReg(R15 (PC))  returns 0x08000FE8 (0000ms, 0637ms total)
T25A8 001:094 JLINK_ReadReg(XPSR)  returns 0x01000000 (0000ms, 0637ms total)
T25A8 001:095 JLINK_ReadMem (0x08000EE8, 0x003C Bytes, ...) -- CPU_ReadMem(128 bytes @ 0x08000EC0) -- Updating C cache (128 bytes @ 0x08000EC0) -- Read from C cache (60 bytes @ 0x08000EE8) - Data: 40 1C 3A 4B A3 F8 08 02 98 1C 81 54 80 1E B0 F8 ...  returns 0x00 (0001ms, 0638ms total)
T25A8 001:096 JLINK_ReadMem (0x08000F24, 0x003C Bytes, ...) -- CPU_ReadMem(64 bytes @ 0x08000F40) -- Updating C cache (64 bytes @ 0x08000F40) -- Read from C cache (60 bytes @ 0x08000F24) - Data: 40 F2 24 41 29 48 00 F0 45 FF 10 B3 29 48 00 78 ...  returns 0x00 (0000ms, 0638ms total)
T25A8 001:096 JLINK_ReadMem (0x08000F60, 0x003C Bytes, ...) -- CPU_ReadMem(64 bytes @ 0x08000F80) -- Updating C cache (64 bytes @ 0x08000F80) -- Read from C cache (60 bytes @ 0x08000F60) - Data: 08 46 00 78 05 28 01 DD 01 20 08 70 18 48 00 88 ...  returns 0x00 (0001ms, 0639ms total)
T25A8 001:097 JLINK_ReadMem (0x08000F9C, 0x003C Bytes, ...) -- CPU_ReadMem(64 bytes @ 0x08000FC0) -- Updating C cache (64 bytes @ 0x08000FC0) -- Read from C cache (60 bytes @ 0x08000F9C) - Data: 48 FC 10 49 04 48 18 38 01 F0 F9 FE 00 21 02 48 ...  returns 0x00 (0001ms, 0640ms total)
T25A8 001:098 JLINK_ReadMem (0x08000FE4, 0x001C Bytes, ...) -- Read from C cache (28 bytes @ 0x08000FE4) - Data: E7 08 00 20 09 48 80 47 09 48 00 47 FE E7 FE E7 ...  returns 0x00 (0000ms, 0640ms total)
T25A8 001:098 JLINK_ReadMem (0x08001000, 0x0020 Bytes, ...) -- CPU_ReadMem(64 bytes @ 0x08001000) -- Updating C cache (64 bytes @ 0x08001000) -- Read from C cache (32 bytes @ 0x08001000) - Data: FE E7 FE E7 04 48 05 49 05 4A 06 4B 70 47 00 00 ...  returns 0x00 (0001ms, 0641ms total)
T25A8 001:246 JLINK_ReadMem (0x40011400, 0x0018 Bytes, ...) -- CPU_ReadMem(24 bytes @ 0x40011400) - Data: 00 00 00 00 00 00 00 00 00 00 00 00 00 00 00 00 ...  returns 0x00 (0000ms, 0641ms total)
T25A8 001:246 JLINK_ReadMem (0x40011418, 0x0004 Bytes, ...) -- CPU_ReadMem(4 bytes @ 0x40011418) - Data: 00 00 00 00  returns 0x00 (0001ms, 0642ms total)
T25A8 004:476 JLINK_ReadMem (0x40011000, 0x0252 Bytes, ...) -- CPU_ReadMem(594 bytes @ 0x40011000) - Data: 00 00 00 00 00 00 00 00 00 00 00 00 00 00 00 00 ...  returns 0x00 (0004ms, 0646ms total)
T25A8 004:481 JLINK_ReadMem (0x200007E4, 0x001C Bytes, ...) -- CPU_ReadMem(64 bytes @ 0x200007C0) -- Updating C cache (64 bytes @ 0x200007C0) -- Read from C cache (28 bytes @ 0x200007E4) - Data: 00 00 00 00 00 00 00 00 00 00 00 00 00 00 00 00 ...  returns 0x00 (0000ms, 0646ms total)
T25A8 004:481 JLINK_ReadMem (0x20000800, 0x0236 Bytes, ...) -- CPU_ReadMem(576 bytes @ 0x20000800) -- Updating C cache (576 bytes @ 0x20000800) -- Read from C cache (566 bytes @ 0x20000800) - Data: 00 00 00 00 00 00 00 00 00 00 00 00 00 00 00 00 ...  returns 0x00 (0003ms, 0649ms total)
T25A8 004:484 JLINK_ReadMem (0x200003C4, 0x003C Bytes, ...) -- CPU_ReadMem(64 bytes @ 0x200003C0) -- Updating C cache (64 bytes @ 0x200003C0) -- Read from C cache (60 bytes @ 0x200003C4) - Data: 00 00 00 00 00 00 00 00 00 00 00 00 00 00 00 00 ...  returns 0x00 (0001ms, 0650ms total)
T25A8 004:485 JLINK_ReadMem (0x20000400, 0x008A Bytes, ...) -- CPU_ReadMem(192 bytes @ 0x20000400) -- Updating C cache (192 bytes @ 0x20000400) -- Read from C cache (138 bytes @ 0x20000400) - Data: 00 00 00 00 00 00 00 00 00 00 00 00 00 00 00 00 ...  returns 0x00 (0001ms, 0651ms total)
T4AA0 004:511 JLINK_SetBPEx(Addr = 0x080002AA, Type = 0xFFFFFFF2)  returns 0x00000001 (0000ms, 0651ms total)
T4AA0 004:511 JLINK_SetBPEx(Addr = 0x080002FE, Type = 0xFFFFFFF2)  returns 0x00000002 (0000ms, 0651ms total)
T4AA0 004:511 JLINK_Go() -- CPU_WriteMem(4 bytes @ 0xE0002000) -- CPU_WriteMem(4 bytes @ 0xE0002008) -- CPU_WriteMem(4 bytes @ 0xE0002000) -- CPU_WriteMem(4 bytes @ 0xE000200C) -- CPU_WriteMem(4 bytes @ 0xE0002010) -- CPU_WriteMem(4 bytes @ 0xE0002014) -- CPU_WriteMem(4 bytes @ 0xE0002018) -- CPU_WriteMem(4 bytes @ 0xE000201C) -- CPU_WriteMem(4 bytes @ 0xE0001004) (0003ms, 0654ms total)
T4AA0 004:616 JLINK_IsHalted()  returns TRUE (0002ms, 0656ms total)
T4AA0 004:618 JLINK_Halt()  returns 0x00 (0000ms, 0654ms total)
T4AA0 004:618 JLINK_IsHalted()  returns TRUE (0000ms, 0654ms total)
T4AA0 004:618 JLINK_IsHalted()  returns TRUE (0000ms, 0654ms total)
T4AA0 004:618 JLINK_IsHalted()  returns TRUE (0000ms, 0654ms total)
T4AA0 004:618 JLINK_ReadReg(R15 (PC))  returns 0x080002AA (0000ms, 0654ms total)
T4AA0 004:618 JLINK_ReadReg(XPSR)  returns 0x01000000 (0000ms, 0654ms total)
T4AA0 004:618 JLINK_ClrBPEx(BPHandle = 0x00000001)  returns 0x00 (0000ms, 0654ms total)
T4AA0 004:618 JLINK_ClrBPEx(BPHandle = 0x00000002)  returns 0x00 (0000ms, 0654ms total)
T4AA0 004:618 JLINK_ReadMemU32(0xE000ED30, 0x0001 Items, ...) -- CPU_ReadMem(4 bytes @ 0xE000ED30) - Data: 02 00 00 00  returns 0x01 (0001ms, 0655ms total)
T4AA0 004:619 JLINK_ReadMemU32(0xE0001028, 0x0001 Items, ...) -- CPU_ReadMem(4 bytes @ 0xE0001028) - Data: 00 00 00 00  returns 0x01 (0000ms, 0655ms total)
T4AA0 004:619 JLINK_ReadMemU32(0xE0001038, 0x0001 Items, ...) -- CPU_ReadMem(4 bytes @ 0xE0001038) - Data: 00 02 00 00  returns 0x01 (0000ms, 0655ms total)
T4AA0 004:619 JLINK_ReadMemU32(0xE0001048, 0x0001 Items, ...) -- CPU_ReadMem(4 bytes @ 0xE0001048) - Data: 00 00 00 00  returns 0x01 (0001ms, 0656ms total)
T4AA0 004:620 JLINK_ReadMemU32(0xE0001058, 0x0001 Items, ...) -- CPU_ReadMem(4 bytes @ 0xE0001058) - Data: 00 00 00 00  returns 0x01 (0000ms, 0656ms total)
T4AA0 004:620 JLINK_ReadReg(R0)  returns 0x20008A20 (0000ms, 0656ms total)
T4AA0 004:620 JLINK_ReadReg(R1)  returns 0x20008C20 (0000ms, 0656ms total)
T4AA0 004:620 JLINK_ReadReg(R2)  returns 0x20008C20 (0000ms, 0656ms total)
T4AA0 004:620 JLINK_ReadReg(R3)  returns 0x20008C20 (0000ms, 0656ms total)
T4AA0 004:620 JLINK_ReadReg(R4)  returns 0x00000000 (0000ms, 0656ms total)
T4AA0 004:620 JLINK_ReadReg(R5)  returns 0x200089C0 (0001ms, 0657ms total)
T4AA0 004:621 JLINK_ReadReg(R6)  returns 0x00000000 (0000ms, 0657ms total)
T4AA0 004:621 JLINK_ReadReg(R7)  returns 0x00000000 (0000ms, 0657ms total)
T4AA0 004:621 JLINK_ReadReg(R8)  returns 0x00000000 (0000ms, 0657ms total)
T4AA0 004:621 JLINK_ReadReg(R9)  returns 0x00000000 (0000ms, 0657ms total)
T4AA0 004:621 JLINK_ReadReg(R10)  returns 0x08004D20 (0000ms, 0657ms total)
T4AA0 004:621 JLINK_ReadReg(R11)  returns 0x00000000 (0000ms, 0657ms total)
T4AA0 004:621 JLINK_ReadReg(R12)  returns 0x20008A00 (0000ms, 0657ms total)
T4AA0 004:621 JLINK_ReadReg(R13 (SP))  returns 0x20009020 (0001ms, 0658ms total)
T4AA0 004:622 JLINK_ReadReg(R14)  returns 0x08000233 (0000ms, 0658ms total)
T4AA0 004:622 JLINK_ReadReg(R15 (PC))  returns 0x080002AA (0000ms, 0658ms total)
T4AA0 004:622 JLINK_ReadReg(XPSR)  returns 0x01000000 (0000ms, 0658ms total)
T4AA0 004:622 JLINK_ReadReg(MSP)  returns 0x20009020 (0000ms, 0658ms total)
T4AA0 004:622 JLINK_ReadReg(PSP)  returns 0x00000000 (0000ms, 0658ms total)
T4AA0 004:622 JLINK_ReadReg(CFBP)  returns 0x04000000 (0000ms, 0658ms total)
T4AA0 004:622 JLINK_ReadReg(FPSCR)  returns 0x03000000 (0003ms, 0661ms total)
T4AA0 004:625 JLINK_ReadReg(FPS0)  returns 0x00000000 (0000ms, 0661ms total)
T4AA0 004:625 JLINK_ReadReg(FPS1)  returns 0x00000000 (0000ms, 0661ms total)
T4AA0 004:625 JLINK_ReadReg(FPS2)  returns 0x00000000 (0000ms, 0661ms total)
T4AA0 004:625 JLINK_ReadReg(FPS3)  returns 0x00000000 (0000ms, 0661ms total)
T4AA0 004:625 JLINK_ReadReg(FPS4)  returns 0x00000000 (0000ms, 0661ms total)
T4AA0 004:625 JLINK_ReadReg(FPS5)  returns 0x00000000 (0000ms, 0661ms total)
T4AA0 004:625 JLINK_ReadReg(FPS6)  returns 0x00000000 (0000ms, 0661ms total)
T4AA0 004:625 JLINK_ReadReg(FPS7)  returns 0x00000000 (0000ms, 0661ms total)
T4AA0 004:625 JLINK_ReadReg(FPS8)  returns 0x00000000 (0001ms, 0662ms total)
T4AA0 004:626 JLINK_ReadReg(FPS9)  returns 0x00000000 (0000ms, 0662ms total)
T4AA0 004:626 JLINK_ReadReg(FPS10)  returns 0x00000000 (0000ms, 0662ms total)
T4AA0 004:626 JLINK_ReadReg(FPS11)  returns 0x00000000 (0000ms, 0662ms total)
T4AA0 004:626 JLINK_ReadReg(FPS12)  returns 0x00000000 (0000ms, 0662ms total)
T4AA0 004:626 JLINK_ReadReg(FPS13)  returns 0x00000000 (0000ms, 0662ms total)
T4AA0 004:626 JLINK_ReadReg(FPS14)  returns 0x00000000 (0000ms, 0662ms total)
T4AA0 004:626 JLINK_ReadReg(FPS15)  returns 0x00000000 (0000ms, 0662ms total)
T4AA0 004:626 JLINK_ReadReg(FPS16)  returns 0x00000000 (0000ms, 0662ms total)
T4AA0 004:626 JLINK_ReadReg(FPS17)  returns 0x00000000 (0000ms, 0662ms total)
T4AA0 004:626 JLINK_ReadReg(FPS18)  returns 0x00000000 (0000ms, 0662ms total)
T4AA0 004:626 JLINK_ReadReg(FPS19)  returns 0x00000000 (0000ms, 0662ms total)
T4AA0 004:626 JLINK_ReadReg(FPS20)  returns 0x00000000 (0000ms, 0662ms total)
T4AA0 004:626 JLINK_ReadReg(FPS21)  returns 0x00000000 (0000ms, 0662ms total)
T4AA0 004:626 JLINK_ReadReg(FPS22)  returns 0x00000000 (0000ms, 0662ms total)
T4AA0 004:626 JLINK_ReadReg(FPS23)  returns 0x00000000 (0000ms, 0662ms total)
T4AA0 004:626 JLINK_ReadReg(FPS24)  returns 0x00000000 (0000ms, 0662ms total)
T4AA0 004:626 JLINK_ReadReg(FPS25)  returns 0x00000000 (0001ms, 0663ms total)
T4AA0 004:627 JLINK_ReadReg(FPS26)  returns 0x00000000 (0000ms, 0663ms total)
T4AA0 004:627 JLINK_ReadReg(FPS27)  returns 0x00000000 (0000ms, 0663ms total)
T4AA0 004:627 JLINK_ReadReg(FPS28)  returns 0x00000000 (0000ms, 0663ms total)
T4AA0 004:627 JLINK_ReadReg(FPS29)  returns 0x00000000 (0000ms, 0663ms total)
T4AA0 004:627 JLINK_ReadReg(FPS30)  returns 0x00000000 (0000ms, 0663ms total)
T4AA0 004:627 JLINK_ReadReg(FPS31)  returns 0x00000000 (0000ms, 0663ms total)
T25A8 004:628 JLINK_ReadMem (0x40011400, 0x0018 Bytes, ...) -- CPU_ReadMem(24 bytes @ 0x40011400) - Data: 00 00 00 00 00 00 00 00 00 00 00 00 00 00 00 00 ...  returns 0x00 (0000ms, 0663ms total)
T25A8 004:628 JLINK_ReadMem (0x40011418, 0x0004 Bytes, ...) -- CPU_ReadMem(4 bytes @ 0x40011418) - Data: 00 00 00 00  returns 0x00 (0001ms, 0664ms total)
T25A8 004:629 JLINK_ReadMem (0x080002A8, 0x003C Bytes, ...) -- CPU_ReadMem(128 bytes @ 0x08000280) -- Updating C cache (128 bytes @ 0x08000280) -- Read from C cache (60 bytes @ 0x080002A8) - Data: 10 BD 1C B5 00 F0 86 F9 42 F2 CF 01 09 20 04 F0 ...  returns 0x00 (0001ms, 0665ms total)
T4AA0 009:729 JLINK_SetBPEx(Addr = 0x080002FE, Type = 0xFFFFFFF2)  returns 0x00000003 (0001ms, 0666ms total)
T4AA0 009:730 JLINK_Go() -- CPU_WriteMem(4 bytes @ 0xE0002000) -- CPU_WriteMem(4 bytes @ 0xE0002008) -- CPU_WriteMem(4 bytes @ 0xE000200C) (0001ms, 0667ms total)
T4AA0 009:833 JLINK_IsHalted()  returns FALSE (0000ms, 0667ms total)
T4AA0 009:934 JLINK_IsHalted()  returns TRUE (0002ms, 0669ms total)
T4AA0 009:936 JLINK_Halt()  returns 0x00 (0000ms, 0667ms total)
T4AA0 009:936 JLINK_IsHalted()  returns TRUE (0000ms, 0667ms total)
T4AA0 009:936 JLINK_IsHalted()  returns TRUE (0000ms, 0667ms total)
T4AA0 009:936 JLINK_IsHalted()  returns TRUE (0000ms, 0667ms total)
T4AA0 009:936 JLINK_ReadReg(R15 (PC))  returns 0x080002FE (0000ms, 0667ms total)
T4AA0 009:936 JLINK_ReadReg(XPSR)  returns 0x21000000 (0000ms, 0667ms total)
T4AA0 009:936 JLINK_ClrBPEx(BPHandle = 0x00000003)  returns 0x00 (0000ms, 0667ms total)
T4AA0 009:936 JLINK_ReadMemU32(0xE000ED30, 0x0001 Items, ...) -- CPU_ReadMem(4 bytes @ 0xE000ED30) - Data: 02 00 00 00  returns 0x01 (0000ms, 0667ms total)
T4AA0 009:936 JLINK_ReadMemU32(0xE0001028, 0x0001 Items, ...) -- CPU_ReadMem(4 bytes @ 0xE0001028) - Data: 00 00 00 00  returns 0x01 (0001ms, 0668ms total)
T4AA0 009:937 JLINK_ReadMemU32(0xE0001038, 0x0001 Items, ...) -- CPU_ReadMem(4 bytes @ 0xE0001038) - Data: 00 02 00 00  returns 0x01 (0000ms, 0668ms total)
T4AA0 009:937 JLINK_ReadMemU32(0xE0001048, 0x0001 Items, ...) -- CPU_ReadMem(4 bytes @ 0xE0001048) - Data: 00 00 00 00  returns 0x01 (0001ms, 0669ms total)
T4AA0 009:938 JLINK_ReadMemU32(0xE0001058, 0x0001 Items, ...) -- CPU_ReadMem(4 bytes @ 0xE0001058) - Data: 00 00 00 00  returns 0x01 (0000ms, 0669ms total)
T4AA0 009:938 JLINK_ReadReg(R0)  returns 0x40021800 (0000ms, 0669ms total)
T4AA0 009:938 JLINK_ReadReg(R1)  returns 0x00000040 (0000ms, 0669ms total)
T4AA0 009:938 JLINK_ReadReg(R2)  returns 0x00000040 (0000ms, 0669ms total)
T4AA0 009:938 JLINK_ReadReg(R3)  returns 0x08060301 (0000ms, 0669ms total)
T4AA0 009:938 JLINK_ReadReg(R4)  returns 0x00000000 (0000ms, 0669ms total)
T4AA0 009:938 JLINK_ReadReg(R5)  returns 0x200089C0 (0000ms, 0669ms total)
T4AA0 009:938 JLINK_ReadReg(R6)  returns 0x00000000 (0000ms, 0669ms total)
T4AA0 009:938 JLINK_ReadReg(R7)  returns 0x00000000 (0001ms, 0670ms total)
T4AA0 009:939 JLINK_ReadReg(R8)  returns 0x00000000 (0000ms, 0670ms total)
T4AA0 009:939 JLINK_ReadReg(R9)  returns 0x00000000 (0000ms, 0670ms total)
T4AA0 009:939 JLINK_ReadReg(R10)  returns 0x08004D20 (0000ms, 0670ms total)
T4AA0 009:939 JLINK_ReadReg(R11)  returns 0x00000000 (0000ms, 0670ms total)
T4AA0 009:939 JLINK_ReadReg(R12)  returns 0x00000150 (0000ms, 0670ms total)
T4AA0 009:939 JLINK_ReadReg(R13 (SP))  returns 0x20009010 (0000ms, 0670ms total)
T4AA0 009:939 JLINK_ReadReg(R14)  returns 0x080002A9 (0000ms, 0670ms total)
T4AA0 009:939 JLINK_ReadReg(R15 (PC))  returns 0x080002FE (0000ms, 0670ms total)
T4AA0 009:939 JLINK_ReadReg(XPSR)  returns 0x21000000 (0000ms, 0670ms total)
T4AA0 009:939 JLINK_ReadReg(MSP)  returns 0x20009010 (0000ms, 0670ms total)
T4AA0 009:939 JLINK_ReadReg(PSP)  returns 0x00000000 (0000ms, 0670ms total)
T4AA0 009:939 JLINK_ReadReg(CFBP)  returns 0x04000000 (0000ms, 0670ms total)
T4AA0 009:939 JLINK_ReadReg(FPSCR)  returns 0x03000000 (0003ms, 0673ms total)
T4AA0 009:942 JLINK_ReadReg(FPS0)  returns 0x00000000 (0000ms, 0673ms total)
T4AA0 009:942 JLINK_ReadReg(FPS1)  returns 0x00000000 (0000ms, 0673ms total)
T4AA0 009:942 JLINK_ReadReg(FPS2)  returns 0x00000000 (0000ms, 0673ms total)
T4AA0 009:942 JLINK_ReadReg(FPS3)  returns 0x00000000 (0000ms, 0673ms total)
T4AA0 009:942 JLINK_ReadReg(FPS4)  returns 0x00000000 (0000ms, 0673ms total)
T4AA0 009:942 JLINK_ReadReg(FPS5)  returns 0x00000000 (0001ms, 0674ms total)
T4AA0 009:943 JLINK_ReadReg(FPS6)  returns 0x00000000 (0000ms, 0674ms total)
T4AA0 009:943 JLINK_ReadReg(FPS7)  returns 0x00000000 (0000ms, 0674ms total)
T4AA0 009:943 JLINK_ReadReg(FPS8)  returns 0x00000000 (0000ms, 0674ms total)
T4AA0 009:943 JLINK_ReadReg(FPS9)  returns 0x00000000 (0000ms, 0674ms total)
T4AA0 009:943 JLINK_ReadReg(FPS10)  returns 0x00000000 (0000ms, 0674ms total)
T4AA0 009:943 JLINK_ReadReg(FPS11)  returns 0x00000000 (0000ms, 0674ms total)
T4AA0 009:943 JLINK_ReadReg(FPS12)  returns 0x00000000 (0000ms, 0674ms total)
T4AA0 009:943 JLINK_ReadReg(FPS13)  returns 0x00000000 (0000ms, 0674ms total)
T4AA0 009:943 JLINK_ReadReg(FPS14)  returns 0x00000000 (0000ms, 0674ms total)
T4AA0 009:943 JLINK_ReadReg(FPS15)  returns 0x00000000 (0000ms, 0674ms total)
T4AA0 009:943 JLINK_ReadReg(FPS16)  returns 0x00000000 (0000ms, 0674ms total)
T4AA0 009:943 JLINK_ReadReg(FPS17)  returns 0x00000000 (0000ms, 0674ms total)
T4AA0 009:943 JLINK_ReadReg(FPS18)  returns 0x00000000 (0000ms, 0674ms total)
T4AA0 009:943 JLINK_ReadReg(FPS19)  returns 0x00000000 (0000ms, 0674ms total)
T4AA0 009:943 JLINK_ReadReg(FPS20)  returns 0x00000000 (0000ms, 0674ms total)
T4AA0 009:944 JLINK_ReadReg(FPS21)  returns 0x00000000 (0000ms, 0675ms total)
T4AA0 009:944 JLINK_ReadReg(FPS22)  returns 0x00000000 (0000ms, 0675ms total)
T4AA0 009:944 JLINK_ReadReg(FPS23)  returns 0x00000000 (0000ms, 0675ms total)
T4AA0 009:944 JLINK_ReadReg(FPS24)  returns 0x00000000 (0000ms, 0675ms total)
T4AA0 009:944 JLINK_ReadReg(FPS25)  returns 0x00000000 (0000ms, 0675ms total)
T4AA0 009:944 JLINK_ReadReg(FPS26)  returns 0x00000000 (0000ms, 0675ms total)
T4AA0 009:944 JLINK_ReadReg(FPS27)  returns 0x00000000 (0000ms, 0675ms total)
T4AA0 009:944 JLINK_ReadReg(FPS28)  returns 0x00000000 (0000ms, 0675ms total)
T4AA0 009:944 JLINK_ReadReg(FPS29)  returns 0x00000000 (0000ms, 0675ms total)
T4AA0 009:944 JLINK_ReadReg(FPS30)  returns 0x00000000 (0000ms, 0675ms total)
T4AA0 009:944 JLINK_ReadReg(FPS31)  returns 0x00000000 (0000ms, 0675ms total)
T25A8 009:944 JLINK_ReadMem (0x2000901C, 0x0004 Bytes, ...) -- CPU_ReadMem(64 bytes @ 0x20009000) -- Updating C cache (64 bytes @ 0x20009000) -- Read from C cache (4 bytes @ 0x2000901C) - Data: 33 02 00 08  returns 0x00 (0001ms, 0676ms total)
T25A8 009:945 JLINK_ReadMem (0x40011400, 0x0018 Bytes, ...) -- CPU_ReadMem(24 bytes @ 0x40011400) - Data: C0 00 00 00 00 00 00 00 D9 02 00 00 3C 20 00 00 ...  returns 0x00 (0000ms, 0676ms total)
T25A8 009:945 JLINK_ReadMem (0x40011418, 0x0004 Bytes, ...) -- CPU_ReadMem(4 bytes @ 0x40011418) - Data: 00 00 00 00  returns 0x00 (0000ms, 0676ms total)
T25A8 009:945 JLINK_ReadMem (0x40011400, 0x0004 Bytes, ...) -- CPU_ReadMem(4 bytes @ 0x40011400) - Data: C0 00 00 00  returns 0x00 (0000ms, 0676ms total)
T25A8 009:945 JLINK_ReadMem (0x40011400, 0x0004 Bytes, ...) -- CPU_ReadMem(4 bytes @ 0x40011400) - Data: C0 00 00 00  returns 0x00 (0001ms, 0677ms total)
T25A8 009:946 JLINK_ReadMem (0x40011400, 0x0004 Bytes, ...) -- CPU_ReadMem(4 bytes @ 0x40011400) - Data: C0 00 00 00  returns 0x00 (0000ms, 0677ms total)
T25A8 009:946 JLINK_ReadMem (0x40011400, 0x0004 Bytes, ...) -- CPU_ReadMem(4 bytes @ 0x40011400) - Data: C0 00 00 00  returns 0x00 (0001ms, 0678ms total)
T25A8 009:947 JLINK_ReadMem (0x40011400, 0x0004 Bytes, ...) -- CPU_ReadMem(4 bytes @ 0x40011400) - Data: C0 00 00 00  returns 0x00 (0002ms, 0680ms total)
T25A8 009:949 JLINK_ReadMem (0x40011400, 0x0004 Bytes, ...) -- CPU_ReadMem(4 bytes @ 0x40011400) - Data: C0 00 00 00  returns 0x00 (0000ms, 0680ms total)
T25A8 009:949 JLINK_ReadMem (0x40011400, 0x0004 Bytes, ...) -- CPU_ReadMem(4 bytes @ 0x40011400) - Data: C0 00 00 00  returns 0x00 (0000ms, 0680ms total)
T25A8 009:949 JLINK_ReadMem (0x40011400, 0x0004 Bytes, ...) -- CPU_ReadMem(4 bytes @ 0x40011400) - Data: C0 00 00 00  returns 0x00 (0000ms, 0680ms total)
T25A8 009:949 JLINK_ReadMem (0x40011400, 0x0004 Bytes, ...) -- CPU_ReadMem(4 bytes @ 0x40011400) - Data: C0 00 00 00  returns 0x00 (0000ms, 0680ms total)
T25A8 009:949 JLINK_ReadMem (0x40011400, 0x0004 Bytes, ...) -- CPU_ReadMem(4 bytes @ 0x40011400) - Data: C0 00 00 00  returns 0x00 (0001ms, 0681ms total)
T25A8 009:950 JLINK_ReadMem (0x40011400, 0x0004 Bytes, ...) -- CPU_ReadMem(4 bytes @ 0x40011400) - Data: C0 00 00 00  returns 0x00 (0000ms, 0681ms total)
T25A8 009:952 JLINK_ReadMem (0x40011408, 0x0004 Bytes, ...) -- CPU_ReadMem(4 bytes @ 0x40011408) - Data: D9 02 00 00  returns 0x00 (0001ms, 0682ms total)
T25A8 009:953 JLINK_ReadMem (0x40011408, 0x0004 Bytes, ...) -- CPU_ReadMem(4 bytes @ 0x40011408) - Data: D9 02 00 00  returns 0x00 (0000ms, 0682ms total)
T25A8 009:953 JLINK_ReadMem (0x40011408, 0x0004 Bytes, ...) -- CPU_ReadMem(4 bytes @ 0x40011408) - Data: D9 02 00 00  returns 0x00 (0001ms, 0683ms total)
T25A8 009:955 JLINK_ReadMem (0x4001140C, 0x0004 Bytes, ...) -- CPU_ReadMem(4 bytes @ 0x4001140C) - Data: 3C 20 00 00  returns 0x00 (0001ms, 0684ms total)
T25A8 009:956 JLINK_ReadMem (0x4001140C, 0x0004 Bytes, ...) -- CPU_ReadMem(4 bytes @ 0x4001140C) - Data: 3C 20 00 00  returns 0x00 (0000ms, 0684ms total)
T25A8 009:956 JLINK_ReadMem (0x4001140C, 0x0004 Bytes, ...) -- CPU_ReadMem(4 bytes @ 0x4001140C) - Data: 3C 20 00 00  returns 0x00 (0001ms, 0685ms total)
T25A8 009:957 JLINK_ReadMem (0x4001140C, 0x0004 Bytes, ...) -- CPU_ReadMem(4 bytes @ 0x4001140C) - Data: 3C 20 00 00  returns 0x00 (0000ms, 0685ms total)
T25A8 009:957 JLINK_ReadMem (0x4001140C, 0x0004 Bytes, ...) -- CPU_ReadMem(4 bytes @ 0x4001140C) - Data: 3C 20 00 00  returns 0x00 (0000ms, 0685ms total)
T25A8 009:957 JLINK_ReadMem (0x4001140C, 0x0004 Bytes, ...) -- CPU_ReadMem(4 bytes @ 0x4001140C) - Data: 3C 20 00 00  returns 0x00 (0001ms, 0686ms total)
T25A8 009:958 JLINK_ReadMem (0x4001140C, 0x0004 Bytes, ...) -- CPU_ReadMem(4 bytes @ 0x4001140C) - Data: 3C 20 00 00  returns 0x00 (0000ms, 0686ms total)
T25A8 009:958 JLINK_ReadMem (0x4001140C, 0x0004 Bytes, ...) -- CPU_ReadMem(4 bytes @ 0x4001140C) - Data: 3C 20 00 00  returns 0x00 (0000ms, 0686ms total)
T25A8 009:958 JLINK_ReadMem (0x4001140C, 0x0004 Bytes, ...) -- CPU_ReadMem(4 bytes @ 0x4001140C) - Data: 3C 20 00 00  returns 0x00 (0001ms, 0687ms total)
T25A8 009:959 JLINK_ReadMem (0x4001140C, 0x0004 Bytes, ...) -- CPU_ReadMem(4 bytes @ 0x4001140C) - Data: 3C 20 00 00  returns 0x00 (0000ms, 0687ms total)
T25A8 009:959 JLINK_ReadMem (0x4001140C, 0x0004 Bytes, ...) -- CPU_ReadMem(4 bytes @ 0x4001140C) - Data: 3C 20 00 00  returns 0x00 (0001ms, 0688ms total)
T25A8 009:960 JLINK_ReadMem (0x4001140C, 0x0004 Bytes, ...) -- CPU_ReadMem(4 bytes @ 0x4001140C) - Data: 3C 20 00 00  returns 0x00 (0000ms, 0688ms total)
T25A8 009:960 JLINK_ReadMem (0x4001140C, 0x0004 Bytes, ...) -- CPU_ReadMem(4 bytes @ 0x4001140C) - Data: 3C 20 00 00  returns 0x00 (0000ms, 0688ms total)
T25A8 009:960 JLINK_ReadMem (0x4001140C, 0x0004 Bytes, ...) -- CPU_ReadMem(4 bytes @ 0x4001140C) - Data: 3C 20 00 00  returns 0x00 (0001ms, 0689ms total)
T25A8 009:961 JLINK_ReadMem (0x4001140C, 0x0004 Bytes, ...) -- CPU_ReadMem(4 bytes @ 0x4001140C) - Data: 3C 20 00 00  returns 0x00 (0000ms, 0689ms total)
T25A8 009:961 JLINK_ReadMem (0x4001140C, 0x0004 Bytes, ...) -- CPU_ReadMem(4 bytes @ 0x4001140C) - Data: 3C 20 00 00  returns 0x00 (0000ms, 0689ms total)
T25A8 009:963 JLINK_ReadMem (0x40011414, 0x0004 Bytes, ...) -- CPU_ReadMem(4 bytes @ 0x40011414) - Data: 80 00 00 00  returns 0x00 (0001ms, 0690ms total)
T25A8 009:964 JLINK_ReadMem (0x40011414, 0x0004 Bytes, ...) -- CPU_ReadMem(4 bytes @ 0x40011414) - Data: 80 00 00 00  returns 0x00 (0000ms, 0690ms total)
T25A8 009:964 JLINK_ReadMem (0x40011414, 0x0004 Bytes, ...) -- CPU_ReadMem(4 bytes @ 0x40011414) - Data: 80 00 00 00  returns 0x00 (0000ms, 0690ms total)
T25A8 009:964 JLINK_ReadMem (0x40011414, 0x0004 Bytes, ...) -- CPU_ReadMem(4 bytes @ 0x40011414) - Data: 80 00 00 00  returns 0x00 (0001ms, 0691ms total)
T25A8 009:965 JLINK_ReadMem (0x40011414, 0x0004 Bytes, ...) -- CPU_ReadMem(4 bytes @ 0x40011414) - Data: 80 00 00 00  returns 0x00 (0000ms, 0691ms total)
T25A8 009:965 JLINK_ReadMem (0x40011414, 0x0004 Bytes, ...) -- CPU_ReadMem(4 bytes @ 0x40011414) - Data: 80 00 00 00  returns 0x00 (0001ms, 0692ms total)
T25A8 009:966 JLINK_ReadMem (0x40011414, 0x0004 Bytes, ...) -- CPU_ReadMem(4 bytes @ 0x40011414) - Data: 80 00 00 00  returns 0x00 (0000ms, 0692ms total)
T25A8 009:966 JLINK_ReadMem (0x40011414, 0x0004 Bytes, ...) -- CPU_ReadMem(4 bytes @ 0x40011414) - Data: 80 00 00 00  returns 0x00 (0000ms, 0692ms total)
T25A8 009:966 JLINK_ReadMem (0x40011414, 0x0004 Bytes, ...) -- CPU_ReadMem(4 bytes @ 0x40011414) - Data: 80 00 00 00  returns 0x00 (0001ms, 0693ms total)
T25A8 009:967 JLINK_ReadMem (0x40011414, 0x0004 Bytes, ...) -- CPU_ReadMem(4 bytes @ 0x40011414) - Data: 80 00 00 00  returns 0x00 (0000ms, 0693ms total)
T25A8 009:967 JLINK_ReadMem (0x40011414, 0x0004 Bytes, ...) -- CPU_ReadMem(4 bytes @ 0x40011414) - Data: 80 00 00 00  returns 0x00 (0000ms, 0693ms total)
T25A8 009:967 JLINK_ReadMem (0x40011414, 0x0004 Bytes, ...) -- CPU_ReadMem(4 bytes @ 0x40011414) - Data: 80 00 00 00  returns 0x00 (0001ms, 0694ms total)
T25A8 009:968 JLINK_ReadMem (0x40011414, 0x0004 Bytes, ...) -- CPU_ReadMem(4 bytes @ 0x40011414) - Data: 80 00 00 00  returns 0x00 (0000ms, 0694ms total)
T25A8 009:970 JLINK_ReadMem (0x080002FA, 0x0002 Bytes, ...) -- CPU_ReadMem(64 bytes @ 0x080002C0) -- Updating C cache (64 bytes @ 0x080002C0) -- Read from C cache (2 bytes @ 0x080002FA) - Data: FF F7  returns 0x00 (0001ms, 0695ms total)
T25A8 009:971 JLINK_ReadMem (0x080002FC, 0x003C Bytes, ...) -- CPU_ReadMem(64 bytes @ 0x08000300) -- Updating C cache (64 bytes @ 0x08000300) -- Read from C cache (60 bytes @ 0x080002FC) - Data: B8 FF 3B E0 1E 48 00 78 30 B1 02 28 1B D0 03 28 ...  returns 0x00 (0001ms, 0696ms total)
T4AA0 031:745 JLINK_Go() -- CPU_WriteMem(4 bytes @ 0xE0002008) (0001ms, 0697ms total)
T4AA0 031:847 JLINK_IsHalted()  returns FALSE (0000ms, 0697ms total)
T4AA0 031:948 JLINK_IsHalted()  returns FALSE (0000ms, 0697ms total)
T4AA0 032:048 JLINK_IsHalted()  returns FALSE (0000ms, 0697ms total)
T4AA0 032:149 JLINK_IsHalted()  returns FALSE (0000ms, 0697ms total)
T4AA0 032:251 JLINK_IsHalted()  returns FALSE (0000ms, 0697ms total)
T4AA0 032:353 JLINK_ReadMemU32(0xE0001004, 0x0001 Items, ...) -- CPU is running -- CPU_ReadMem(4 bytes @ 0xE0001004) - Data: 8C 74 15 08  returns 0x01 (0000ms, 0697ms total)
T25A8 032:353 JLINK_ReadMem (0x40011400, 0x0018 Bytes, ...) -- CPU is running -- CPU_ReadMem(24 bytes @ 0x40011400) - Data: C0 00 00 00 00 00 00 00 D9 02 00 00 3C 20 00 00 ...  returns 0x00 (0001ms, 0698ms total)
T25A8 032:354 JLINK_ReadMem (0x40011418, 0x0004 Bytes, ...) -- CPU is running -- CPU_ReadMem(4 bytes @ 0x40011418) - Data: 00 00 00 00  returns 0x00 (0001ms, 0699ms total)
T4AA0 032:355 JLINK_IsHalted()  returns FALSE (0001ms, 0700ms total)
T4AA0 032:456 JLINK_IsHalted()  returns FALSE (0000ms, 0699ms total)
T4AA0 032:557 JLINK_IsHalted()  returns FALSE (0000ms, 0699ms total)
T4AA0 032:659 JLINK_IsHalted()  returns FALSE (0000ms, 0699ms total)
T4AA0 032:761 JLINK_IsHalted()  returns FALSE (0000ms, 0699ms total)
T4AA0 032:862 JLINK_ReadMemU32(0xE0001004, 0x0001 Items, ...) -- CPU is running -- CPU_ReadMem(4 bytes @ 0xE0001004) - Data: 46 00 2F 0D  returns 0x01 (0000ms, 0699ms total)
T25A8 032:862 JLINK_ReadMem (0x40011400, 0x0018 Bytes, ...) -- CPU is running -- CPU_ReadMem(24 bytes @ 0x40011400) - Data: C0 00 00 00 00 00 00 00 D9 02 00 00 3C 20 00 00 ...  returns 0x00 (0001ms, 0700ms total)
T25A8 032:863 JLINK_ReadMem (0x40011418, 0x0004 Bytes, ...) -- CPU is running -- CPU_ReadMem(4 bytes @ 0x40011418) - Data: 00 00 00 00  returns 0x00 (0000ms, 0700ms total)
T4AA0 032:864 JLINK_IsHalted()  returns FALSE (0000ms, 0700ms total)
T4AA0 032:965 JLINK_IsHalted()  returns FALSE (0000ms, 0700ms total)
T4AA0 033:066 JLINK_IsHalted()  returns FALSE (0000ms, 0700ms total)
T4AA0 033:167 JLINK_IsHalted()  returns FALSE (0000ms, 0700ms total)
T4AA0 033:267 JLINK_IsHalted()  returns FALSE (0000ms, 0700ms total)
T4AA0 033:368 JLINK_IsHalted()  returns FALSE (0000ms, 0700ms total)
T4AA0 033:469 JLINK_ReadMemU32(0xE0001004, 0x0001 Items, ...) -- CPU is running -- CPU_ReadMem(4 bytes @ 0xE0001004) - Data: D3 E7 42 13  returns 0x01 (0000ms, 0700ms total)
T25A8 033:469 JLINK_ReadMem (0x40011400, 0x0018 Bytes, ...) -- CPU is running -- CPU_ReadMem(24 bytes @ 0x40011400) - Data: C0 00 00 00 00 00 00 00 D9 02 00 00 3C 20 00 00 ...  returns 0x00 (0001ms, 0701ms total)
T25A8 033:470 JLINK_ReadMem (0x40011418, 0x0004 Bytes, ...) -- CPU is running -- CPU_ReadMem(4 bytes @ 0x40011418) - Data: 00 00 00 00  returns 0x00 (0001ms, 0702ms total)
T4AA0 033:471 JLINK_IsHalted()  returns FALSE (0000ms, 0702ms total)
T4AA0 033:573 JLINK_IsHalted()  returns FALSE (0000ms, 0702ms total)
T4AA0 033:673 JLINK_IsHalted()  returns FALSE (0000ms, 0702ms total)
T4AA0 033:775 JLINK_IsHalted()  returns FALSE (0000ms, 0702ms total)
T4AA0 033:876 JLINK_IsHalted()  returns FALSE (0000ms, 0702ms total)
T4AA0 033:977 JLINK_IsHalted()  returns FALSE (0000ms, 0702ms total)
T4AA0 034:077 JLINK_ReadMemU32(0xE0001004, 0x0001 Items, ...) -- CPU is running -- CPU_ReadMem(4 bytes @ 0xE0001004) - Data: 5A D2 5A 19  returns 0x01 (0000ms, 0702ms total)
T25A8 034:078 JLINK_ReadMem (0x40011400, 0x0018 Bytes, ...) -- CPU is running -- CPU_ReadMem(24 bytes @ 0x40011400) - Data: C0 00 00 00 00 00 00 00 D9 02 00 00 3C 20 00 00 ...  returns 0x00 (0001ms, 0703ms total)
T25A8 034:079 JLINK_ReadMem (0x40011418, 0x0004 Bytes, ...) -- CPU is running -- CPU_ReadMem(4 bytes @ 0x40011418) - Data: 00 00 00 00  returns 0x00 (0000ms, 0703ms total)
T4AA0 034:080 JLINK_IsHalted()  returns FALSE (0000ms, 0703ms total)
T4AA0 034:182 JLINK_IsHalted()  returns FALSE (0000ms, 0703ms total)
T4AA0 034:283 JLINK_IsHalted()  returns FALSE (0000ms, 0703ms total)
T4AA0 034:384 JLINK_IsHalted()  returns FALSE (0000ms, 0703ms total)
T4AA0 034:486 JLINK_IsHalted()  returns FALSE (0000ms, 0703ms total)
T4AA0 034:587 JLINK_IsHalted()  returns FALSE (0000ms, 0703ms total)
T4AA0 034:687 JLINK_ReadMemU32(0xE0001004, 0x0001 Items, ...) -- CPU is running -- CPU_ReadMem(4 bytes @ 0xE0001004) - Data: 37 85 76 1F  returns 0x01 (0000ms, 0703ms total)
T25A8 034:688 JLINK_ReadMem (0x40011400, 0x0018 Bytes, ...) -- CPU is running -- CPU_ReadMem(24 bytes @ 0x40011400) - Data: C0 00 00 00 00 00 00 00 D9 02 00 00 3C 20 00 00 ...  returns 0x00 (0000ms, 0703ms total)
T25A8 034:689 JLINK_ReadMem (0x40011418, 0x0004 Bytes, ...) -- CPU is running -- CPU_ReadMem(4 bytes @ 0x40011418) - Data: 00 00 00 00  returns 0x00 (0000ms, 0704ms total)
T4AA0 034:690 JLINK_IsHalted()  returns FALSE (0000ms, 0704ms total)
T4AA0 034:792 JLINK_IsHalted()  returns FALSE (0000ms, 0704ms total)
T4AA0 034:893 JLINK_IsHalted()  returns FALSE (0001ms, 0705ms total)
T4AA0 034:994 JLINK_IsHalted()  returns FALSE (0000ms, 0704ms total)
T4AA0 035:096 JLINK_IsHalted()  returns FALSE (0000ms, 0704ms total)
T4AA0 035:197 JLINK_ReadMemU32(0xE0001004, 0x0001 Items, ...) -- CPU is running -- CPU_ReadMem(4 bytes @ 0xE0001004) - Data: 56 B3 90 24  returns 0x01 (0000ms, 0704ms total)
T25A8 035:197 JLINK_ReadMem (0x40011400, 0x0018 Bytes, ...) -- CPU is running -- CPU_ReadMem(24 bytes @ 0x40011400) - Data: C0 00 00 00 00 00 00 00 D9 02 00 00 3C 20 00 00 ...  returns 0x00 (0001ms, 0705ms total)
T25A8 035:198 JLINK_ReadMem (0x40011418, 0x0004 Bytes, ...) -- CPU is running -- CPU_ReadMem(4 bytes @ 0x40011418) - Data: 00 00 00 00  returns 0x00 (0000ms, 0705ms total)
T4AA0 035:198 JLINK_IsHalted()  returns FALSE (0001ms, 0706ms total)
T4AA0 035:300 JLINK_IsHalted()  returns FALSE (0000ms, 0705ms total)
T4AA0 035:400 JLINK_IsHalted()  returns FALSE (0000ms, 0705ms total)
T4AA0 035:501 JLINK_IsHalted()  returns FALSE (0000ms, 0705ms total)
T4AA0 035:603 JLINK_IsHalted()  returns FALSE (0001ms, 0706ms total)
T4AA0 035:704 JLINK_IsHalted()  returns FALSE (0000ms, 0705ms total)
T4AA0 035:805 JLINK_ReadMemU32(0xE0001004, 0x0001 Items, ...) -- CPU is running -- CPU_ReadMem(4 bytes @ 0xE0001004) - Data: CB A5 A5 2A  returns 0x01 (0000ms, 0705ms total)
T25A8 035:805 JLINK_ReadMem (0x40011400, 0x0018 Bytes, ...) -- CPU is running -- CPU_ReadMem(24 bytes @ 0x40011400) - Data: C0 00 00 00 00 00 00 00 D9 02 00 00 3C 20 00 00 ...  returns 0x00 (0001ms, 0706ms total)
T25A8 035:806 JLINK_ReadMem (0x40011418, 0x0004 Bytes, ...) -- CPU is running -- CPU_ReadMem(4 bytes @ 0x40011418) - Data: 00 00 00 00  returns 0x00 (0000ms, 0706ms total)
T4AA0 035:807 JLINK_IsHalted()  returns FALSE (0000ms, 0706ms total)
T4AA0 035:908 JLINK_IsHalted()  returns FALSE (0000ms, 0706ms total)
T4AA0 036:009 JLINK_IsHalted()  returns FALSE (0000ms, 0706ms total)
T4AA0 036:109 JLINK_IsHalted()  returns FALSE (0000ms, 0706ms total)
T4AA0 036:210 JLINK_IsHalted()  returns FALSE (0000ms, 0706ms total)
T4AA0 036:312 JLINK_ReadMemU32(0xE0001004, 0x0001 Items, ...) -- CPU is running -- CPU_ReadMem(4 bytes @ 0xE0001004) - Data: E7 F5 B8 2F  returns 0x01 (0000ms, 0706ms total)
T25A8 036:313 JLINK_ReadMem (0x40011400, 0x0018 Bytes, ...) -- CPU is running -- CPU_ReadMem(24 bytes @ 0x40011400) - Data: C0 00 00 00 00 00 00 00 D9 02 00 00 3C 20 00 00 ...  returns 0x00 (0001ms, 0707ms total)
T25A8 036:314 JLINK_ReadMem (0x40011418, 0x0004 Bytes, ...) -- CPU is running -- CPU_ReadMem(4 bytes @ 0x40011418) - Data: 00 00 00 00  returns 0x00 (0000ms, 0707ms total)
T4AA0 036:315 JLINK_IsHalted()  returns FALSE (0001ms, 0709ms total)
T4AA0 036:417 JLINK_IsHalted()  returns FALSE (0000ms, 0708ms total)
T4AA0 036:517 JLINK_IsHalted()  returns FALSE (0000ms, 0708ms total)
T4AA0 036:619 JLINK_IsHalted()  returns FALSE (0002ms, 0710ms total)
T4AA0 036:722 JLINK_IsHalted()  returns FALSE (0000ms, 0708ms total)
T4AA0 036:823 JLINK_ReadMemU32(0xE0001004, 0x0001 Items, ...) -- CPU is running -- CPU_ReadMem(4 bytes @ 0xE0001004) - Data: 30 DD D9 34  returns 0x01 (0001ms, 0709ms total)
T25A8 036:824 JLINK_ReadMem (0x40011400, 0x0018 Bytes, ...) -- CPU is running -- CPU_ReadMem(24 bytes @ 0x40011400) - Data: C0 00 00 00 00 00 00 00 D9 02 00 00 3C 20 00 00 ...  returns 0x00 (0001ms, 0710ms total)
T25A8 036:825 JLINK_ReadMem (0x40011418, 0x0004 Bytes, ...) -- CPU is running -- CPU_ReadMem(4 bytes @ 0x40011418) - Data: 00 00 00 00  returns 0x00 (0001ms, 0711ms total)
T4AA0 036:827 JLINK_IsHalted()  returns FALSE (0000ms, 0711ms total)
T4AA0 036:929 JLINK_IsHalted()  returns FALSE (0000ms, 0711ms total)
T4AA0 037:030 JLINK_IsHalted()  returns FALSE (0000ms, 0711ms total)
T4AA0 037:131 JLINK_IsHalted()  returns FALSE (0000ms, 0711ms total)
T4AA0 037:231 JLINK_IsHalted()  returns FALSE (0000ms, 0711ms total)
T4AA0 037:332 JLINK_IsHalted()  returns FALSE (0000ms, 0711ms total)
T4AA0 037:433 JLINK_ReadMemU32(0xE0001004, 0x0001 Items, ...) -- CPU is running -- CPU_ReadMem(4 bytes @ 0xE0001004) - Data: BD 3B F2 3A  returns 0x01 (0000ms, 0711ms total)
T25A8 037:434 JLINK_ReadMem (0x40011400, 0x0018 Bytes, ...) -- CPU is running -- CPU_ReadMem(24 bytes @ 0x40011400) - Data: C0 00 00 00 00 00 00 00 D9 02 00 00 3C 20 00 00 ...  returns 0x00 (0000ms, 0711ms total)
T25A8 037:434 JLINK_ReadMem (0x40011418, 0x0004 Bytes, ...) -- CPU is running -- CPU_ReadMem(4 bytes @ 0x40011418) - Data: 00 00 00 00  returns 0x00 (0001ms, 0712ms total)
T4AA0 037:435 JLINK_IsHalted()  returns FALSE (0001ms, 0713ms total)
T4AA0 037:537 JLINK_IsHalted()  returns FALSE (0000ms, 0712ms total)
T4AA0 037:638 JLINK_IsHalted()  returns FALSE (0000ms, 0712ms total)
T4AA0 037:739 JLINK_IsHalted()  returns FALSE (0000ms, 0712ms total)
T4AA0 037:841 JLINK_IsHalted()  returns FALSE (0000ms, 0712ms total)
T4AA0 037:942 JLINK_IsHalted()  returns FALSE (0000ms, 0712ms total)
T4AA0 038:042 JLINK_ReadMemU32(0xE0001004, 0x0001 Items, ...) -- CPU is running -- CPU_ReadMem(4 bytes @ 0xE0001004) - Data: 47 A1 0C 41  returns 0x01 (0000ms, 0712ms total)
T25A8 038:043 JLINK_ReadMem (0x40011400, 0x0018 Bytes, ...) -- CPU is running -- CPU_ReadMem(24 bytes @ 0x40011400) - Data: C0 00 00 00 00 00 00 00 D9 02 00 00 3C 20 00 00 ...  returns 0x00 (0000ms, 0712ms total)
T25A8 038:043 JLINK_ReadMem (0x40011418, 0x0004 Bytes, ...) -- CPU is running -- CPU_ReadMem(4 bytes @ 0x40011418) - Data: 00 00 00 00  returns 0x00 (0001ms, 0713ms total)
T4AA0 038:045 JLINK_IsHalted()  returns FALSE (0000ms, 0713ms total)
T4AA0 038:147 JLINK_IsHalted()  returns FALSE (0000ms, 0713ms total)
T4AA0 038:249 JLINK_IsHalted()  returns FALSE (0000ms, 0713ms total)
T4AA0 038:350 JLINK_IsHalted()  returns FALSE (0001ms, 0714ms total)
T4AA0 038:453 JLINK_IsHalted()  returns FALSE (0001ms, 0714ms total)
T4AA0 038:555 JLINK_IsHalted()  returns FALSE (0000ms, 0713ms total)
T4AA0 038:656 JLINK_ReadMemU32(0xE0001004, 0x0001 Items, ...) -- CPU is running -- CPU_ReadMem(4 bytes @ 0xE0001004) - Data: 52 AE 31 47  returns 0x01 (0000ms, 0713ms total)
T25A8 038:656 JLINK_ReadMem (0x40011400, 0x0018 Bytes, ...) -- CPU is running -- CPU_ReadMem(24 bytes @ 0x40011400) - Data: C0 00 00 00 00 00 00 00 D9 02 00 00 3C 20 00 00 ...  returns 0x00 (0001ms, 0714ms total)
T25A8 038:657 JLINK_ReadMem (0x40011418, 0x0004 Bytes, ...) -- CPU is running -- CPU_ReadMem(4 bytes @ 0x40011418) - Data: 00 00 00 00  returns 0x00 (0001ms, 0715ms total)
T4AA0 038:658 JLINK_IsHalted()  returns FALSE (0001ms, 0716ms total)
T4AA0 038:759 JLINK_IsHalted()  returns FALSE (0000ms, 0715ms total)
T4AA0 038:861 JLINK_IsHalted()  returns FALSE (0000ms, 0715ms total)
T4AA0 038:963 JLINK_IsHalted()  returns FALSE (0000ms, 0715ms total)
T4AA0 039:063 JLINK_IsHalted()  returns FALSE (0000ms, 0715ms total)
T4AA0 039:164 JLINK_IsHalted()  returns FALSE (0000ms, 0715ms total)
T4AA0 039:265 JLINK_ReadMemU32(0xE0001004, 0x0001 Items, ...) -- CPU is running -- CPU_ReadMem(4 bytes @ 0xE0001004) - Data: 41 FE 4A 4D  returns 0x01 (0000ms, 0715ms total)
T25A8 039:266 JLINK_ReadMem (0x40011400, 0x0018 Bytes, ...) -- CPU is running -- CPU_ReadMem(24 bytes @ 0x40011400) - Data: C0 00 00 00 00 00 00 00 D9 02 00 00 3C 20 00 00 ...  returns 0x00 (0000ms, 0715ms total)
T25A8 039:266 JLINK_ReadMem (0x40011418, 0x0004 Bytes, ...) -- CPU is running -- CPU_ReadMem(4 bytes @ 0x40011418) - Data: 00 00 00 00  returns 0x00 (0001ms, 0716ms total)
T4AA0 039:268 JLINK_IsHalted()  returns FALSE (0000ms, 0716ms total)
T4AA0 039:369 JLINK_IsHalted()  returns FALSE (0000ms, 0716ms total)
T4AA0 039:469 JLINK_IsHalted()  returns FALSE (0000ms, 0716ms total)
T4AA0 039:570 JLINK_IsHalted()  returns FALSE (0000ms, 0716ms total)
T4AA0 039:672 JLINK_IsHalted()  returns FALSE (0000ms, 0716ms total)
T4AA0 039:772 JLINK_IsHalted()  returns FALSE (0000ms, 0716ms total)
T4AA0 039:873 JLINK_ReadMemU32(0xE0001004, 0x0001 Items, ...) -- CPU is running -- CPU_ReadMem(4 bytes @ 0xE0001004) - Data: 80 E9 64 53  returns 0x01 (0001ms, 0717ms total)
T25A8 039:875 JLINK_ReadMem (0x40011400, 0x0018 Bytes, ...) -- CPU is running -- CPU_ReadMem(24 bytes @ 0x40011400) - Data: C0 00 00 00 00 00 00 00 D9 02 00 00 3C 20 00 00 ...  returns 0x00 (0000ms, 0717ms total)
T25A8 039:875 JLINK_ReadMem (0x40011418, 0x0004 Bytes, ...) -- CPU is running -- CPU_ReadMem(4 bytes @ 0x40011418) - Data: 00 00 00 00  returns 0x00 (0001ms, 0718ms total)
T4AA0 039:877 JLINK_IsHalted()  returns FALSE (0001ms, 0719ms total)
T4AA0 039:979 JLINK_IsHalted()  returns FALSE (0000ms, 0718ms total)
T4AA0 040:081 JLINK_IsHalted()  returns FALSE (0000ms, 0718ms total)
T4AA0 040:184 JLINK_IsHalted()  returns FALSE (0000ms, 0718ms total)
T4AA0 040:285 JLINK_IsHalted()  returns FALSE (0000ms, 0718ms total)
T4AA0 040:387 JLINK_ReadMemU32(0xE0001004, 0x0001 Items, ...) -- CPU is running -- CPU_ReadMem(4 bytes @ 0xE0001004) - Data: 9D E6 87 58  returns 0x01 (0000ms, 0718ms total)
T25A8 040:388 JLINK_ReadMem (0x40011400, 0x0018 Bytes, ...) -- CPU is running -- CPU_ReadMem(24 bytes @ 0x40011400) - Data: C0 00 00 00 00 00 00 00 D9 02 00 00 3C 20 00 00 ...  returns 0x00 (0001ms, 0720ms total)
T25A8 040:389 JLINK_ReadMem (0x40011418, 0x0004 Bytes, ...) -- CPU is running -- CPU_ReadMem(4 bytes @ 0x40011418) - Data: 00 00 00 00  returns 0x00 (0001ms, 0721ms total)
T4AA0 040:391 JLINK_IsHalted()  returns FALSE (0000ms, 0721ms total)
T4AA0 040:492 JLINK_IsHalted()  returns FALSE (0000ms, 0721ms total)
T4AA0 040:593 JLINK_IsHalted()  returns FALSE (0000ms, 0721ms total)
T4AA0 040:694 JLINK_IsHalted()  returns FALSE (0000ms, 0721ms total)
T4AA0 040:795 JLINK_IsHalted()  returns FALSE (0001ms, 0722ms total)
T4AA0 040:897 JLINK_IsHalted()  returns FALSE (0001ms, 0722ms total)
T4AA0 040:999 JLINK_ReadMemU32(0xE0001004, 0x0001 Items, ...) -- CPU is running -- CPU_ReadMem(4 bytes @ 0xE0001004) - Data: FC 7C AA 5E  returns 0x01 (0001ms, 0722ms total)
T25A8 041:001 JLINK_ReadMem (0x40011400, 0x0018 Bytes, ...) -- CPU is running -- CPU_ReadMem(24 bytes @ 0x40011400) - Data: C0 00 00 00 00 00 00 00 D9 02 00 00 3C 20 00 00 ...  returns 0x00 (0001ms, 0723ms total)
T25A8 041:002 JLINK_ReadMem (0x40011418, 0x0004 Bytes, ...) -- CPU is running -- CPU_ReadMem(4 bytes @ 0x40011418) - Data: 00 00 00 00  returns 0x00 (0000ms, 0723ms total)
T4AA0 041:003 JLINK_IsHalted()  returns FALSE (0001ms, 0724ms total)
T4AA0 041:105 JLINK_IsHalted()  returns FALSE (0000ms, 0723ms total)
T4AA0 041:207 JLINK_IsHalted()  returns FALSE (0000ms, 0723ms total)
T4AA0 041:307 JLINK_IsHalted()  returns FALSE (0000ms, 0723ms total)
T4AA0 041:409 JLINK_IsHalted()  returns FALSE (0000ms, 0723ms total)
T4AA0 041:510 JLINK_ReadMemU32(0xE0001004, 0x0001 Items, ...) -- CPU is running -- CPU_ReadMem(4 bytes @ 0xE0001004) - Data: 92 54 C6 63  returns 0x01 (0000ms, 0723ms total)
T25A8 041:510 JLINK_ReadMem (0x40011400, 0x0018 Bytes, ...) -- CPU is running -- CPU_ReadMem(24 bytes @ 0x40011400) - Data: C0 00 00 00 00 00 00 00 D9 02 00 00 3C 20 00 00 ...  returns 0x00 (0001ms, 0724ms total)
T25A8 041:511 JLINK_ReadMem (0x40011418, 0x0004 Bytes, ...) -- CPU is running -- CPU_ReadMem(4 bytes @ 0x40011418) - Data: 00 00 00 00  returns 0x00 (0001ms, 0725ms total)
T4AA0 041:512 JLINK_IsHalted()  returns FALSE (0001ms, 0726ms total)
T4AA0 041:614 JLINK_IsHalted()  returns FALSE (0000ms, 0725ms total)
T4AA0 041:715 JLINK_IsHalted()  returns FALSE (0000ms, 0725ms total)
T4AA0 041:817 JLINK_IsHalted()  returns FALSE (0000ms, 0725ms total)
T4AA0 041:918 JLINK_IsHalted()  returns FALSE (0000ms, 0725ms total)
